v4	Ix(x1:MINS)	Ix(x1:MINS)*v4	Ix(x2:MINS)	Ix(x2:MINS)*v4	Ix(x3:MINS)	Ix(x3:MINS)*v4
0.000000000000000e+000	1.599984e+000	0.000000e+000	3.099969e+000	0.000000e+000	5.099949e+000	0.000000e+000
1.000000000000000e-001	1.599956e+000	1.599956e-001	3.099941e+000	3.099941e-001	5.099921e+000	5.099921e-001
2.000000000000000e-001	1.599928e+000	3.199857e-001	3.099913e+000	6.199827e-001	5.099894e+000	1.019979e+000
3.000000000000000e-001	1.599901e+000	4.799702e-001	3.099886e+000	9.299657e-001	5.099865e+000	1.529960e+000
4.000000000000000e-001	1.599873e+000	6.399491e-001	3.099858e+000	1.239943e+000	5.099838e+000	2.039935e+000
5.000000000000000e-001	1.599845e+000	7.999225e-001	3.099830e+000	1.549915e+000	5.099810e+000	2.549905e+000
6.000000000000000e-001	1.599817e+000	9.598904e-001	3.099802e+000	1.859881e+000	5.099782e+000	3.059869e+000
7.000000000000000e-001	1.599790e+000	1.119853e+000	3.099774e+000	2.169842e+000	5.099754e+000	3.569828e+000
7.999999999999999e-001	1.599762e+000	1.279809e+000	3.099747e+000	2.479797e+000	5.099727e+000	4.079781e+000
8.999999999999999e-001	1.599734e+000	1.439761e+000	3.099719e+000	2.789747e+000	5.099699e+000	4.589729e+000
9.999999999999999e-001	1.599706e+000	1.599706e+000	3.099691e+000	3.099691e+000	5.099671e+000	5.099671e+000
1.100000000000000e+000	1.599678e+000	1.759646e+000	3.099663e+000	3.409630e+000	5.099643e+000	5.609608e+000
1.200000000000000e+000	1.599651e+000	1.919581e+000	3.099636e+000	3.719563e+000	5.099616e+000	6.119539e+000
1.300000000000000e+000	1.599623e+000	2.079510e+000	3.099608e+000	4.029490e+000	5.099588e+000	6.629464e+000
1.400000000000000e+000	1.599595e+000	2.239433e+000	3.099580e+000	4.339412e+000	5.099560e+000	7.139384e+000
1.500000000000000e+000	1.599567e+000	2.399351e+000	3.099552e+000	4.649328e+000	5.099532e+000	7.649298e+000
1.600000000000000e+000	1.599539e+000	2.559263e+000	3.099524e+000	4.959239e+000	5.099504e+000	8.159207e+000
1.700000000000000e+000	1.599512e+000	2.719170e+000	3.099497e+000	5.269144e+000	5.099476e+000	8.669110e+000
1.800000000000001e+000	1.599484e+000	2.879071e+000	3.099469e+000	5.579044e+000	5.099449e+000	9.179008e+000
1.900000000000001e+000	1.599456e+000	3.038966e+000	3.099441e+000	5.888938e+000	5.099421e+000	9.688900e+000
2.000000000000000e+000	1.599428e+000	3.198856e+000	3.099413e+000	6.198826e+000	5.099393e+000	1.019879e+001
2.100000000000001e+000	1.599400e+000	3.358741e+000	3.099385e+000	6.508709e+000	5.099365e+000	1.070867e+001
2.200000000000001e+000	1.599373e+000	3.518620e+000	3.099357e+000	6.818586e+000	5.099338e+000	1.121854e+001
2.300000000000001e+000	1.599345e+000	3.678493e+000	3.099330e+000	7.128458e+000	5.099309e+000	1.172841e+001
2.400000000000001e+000	1.599317e+000	3.838360e+000	3.099302e+000	7.438324e+000	5.099282e+000	1.223828e+001
2.500000000000001e+000	1.599289e+000	3.998223e+000	3.099274e+000	7.748185e+000	5.099254e+000	1.274814e+001
2.600000000000001e+000	1.599261e+000	4.158079e+000	3.099246e+000	8.058040e+000	5.099226e+000	1.325799e+001
2.700000000000001e+000	1.599233e+000	4.317930e+000	3.099218e+000	8.367890e+000	5.099198e+000	1.376784e+001
2.800000000000001e+000	1.599206e+000	4.477776e+000	3.099190e+000	8.677733e+000	5.099171e+000	1.427768e+001
2.900000000000001e+000	1.599178e+000	4.637615e+000	3.099163e+000	8.987571e+000	5.099143e+000	1.478751e+001
3.000000000000001e+000	1.599150e+000	4.797449e+000	3.099135e+000	9.297405e+000	5.099115e+000	1.529734e+001
3.100000000000001e+000	1.599122e+000	4.957278e+000	3.099107e+000	9.607232e+000	5.099087e+000	1.580717e+001
3.200000000000002e+000	1.599094e+000	5.117101e+000	3.099079e+000	9.917053e+000	5.099059e+000	1.631699e+001
3.300000000000002e+000	1.599066e+000	5.276919e+000	3.099051e+000	1.022687e+001	5.099031e+000	1.682680e+001
3.400000000000002e+000	1.599038e+000	5.436731e+000	3.099023e+000	1.053668e+001	5.099003e+000	1.733661e+001
3.500000000000002e+000	1.599011e+000	5.596537e+000	3.098995e+000	1.084648e+001	5.098976e+000	1.784641e+001
3.600000000000002e+000	1.598983e+000	5.756338e+000	3.098968e+000	1.115628e+001	5.098948e+000	1.835621e+001
3.700000000000002e+000	1.598955e+000	5.916133e+000	3.098940e+000	1.146608e+001	5.098920e+000	1.886600e+001
3.800000000000002e+000	1.598927e+000	6.075923e+000	3.098912e+000	1.177587e+001	5.098892e+000	1.937579e+001
3.900000000000002e+000	1.598899e+000	6.235707e+000	3.098884e+000	1.208565e+001	5.098864e+000	1.988557e+001
4.000000000000002e+000	1.598871e+000	6.395485e+000	3.098856e+000	1.239542e+001	5.098836e+000	2.039534e+001
4.100000000000001e+000	1.598843e+000	6.555257e+000	3.098828e+000	1.270520e+001	5.098808e+000	2.090511e+001
4.200000000000001e+000	1.598815e+000	6.715024e+000	3.098800e+000	1.301496e+001	5.098780e+000	2.141488e+001
4.300000000000001e+000	1.598787e+000	6.874786e+000	3.098772e+000	1.332472e+001	5.098752e+000	2.192463e+001
4.400000000000000e+000	1.598759e+000	7.034541e+000	3.098744e+000	1.363448e+001	5.098724e+000	2.243439e+001
4.500000000000000e+000	1.598732e+000	7.194292e+000	3.098716e+000	1.394422e+001	5.098696e+000	2.294413e+001
4.600000000000000e+000	1.598704e+000	7.354036e+000	3.098688e+000	1.425397e+001	5.098668e+000	2.345387e+001
4.699999999999999e+000	1.598675e+000	7.513775e+000	3.098660e+000	1.456370e+001	5.098640e+000	2.396361e+001
4.799999999999999e+000	1.598648e+000	7.673508e+000	3.098632e+000	1.487344e+001	5.098612e+000	2.447334e+001
4.899999999999999e+000	1.598620e+000	7.833236e+000	3.098604e+000	1.518316e+001	5.098584e+000	2.498306e+001
4.999999999999998e+000	1.598591e+000	7.992957e+000	3.098576e+000	1.549288e+001	5.098556e+000	2.549278e+001
5.099999999999998e+000	1.598563e+000	8.152674e+000	3.098548e+000	1.580260e+001	5.098528e+000	2.600249e+001
5.199999999999998e+000	1.598535e+000	8.312384e+000	3.098520e+000	1.611231e+001	5.098500e+000	2.651220e+001
5.299999999999997e+000	1.598507e+000	8.472089e+000	3.098492e+000	1.642201e+001	5.098472e+000	2.702190e+001
5.399999999999997e+000	1.598479e+000	8.631787e+000	3.098464e+000	1.673171e+001	5.098444e+000	2.753159e+001
5.499999999999996e+000	1.598451e+000	8.791481e+000	3.098436e+000	1.704140e+001	5.098415e+000	2.804128e+001
5.599999999999996e+000	1.598423e+000	8.951167e+000	3.098408e+000	1.735108e+001	5.098387e+000	2.855097e+001
5.699999999999996e+000	1.598395e+000	9.110849e+000	3.098379e+000	1.766076e+001	5.098359e+000	2.906065e+001
5.799999999999995e+000	1.598366e+000	9.270525e+000	3.098351e+000	1.797044e+001	5.098331e+000	2.957032e+001
5.899999999999995e+000	1.598338e+000	9.430195e+000	3.098323e+000	1.828010e+001	5.098302e+000	3.007998e+001
5.999999999999995e+000	1.598310e+000	9.589859e+000	3.098294e+000	1.858977e+001	5.098274e+000	3.058965e+001
6.099999999999994e+000	1.598282e+000	9.749517e+000	3.098266e+000	1.889942e+001	5.098246e+000	3.109930e+001
6.199999999999994e+000	1.598253e+000	9.909169e+000	3.098238e+000	1.920907e+001	5.098217e+000	3.160895e+001
6.299999999999994e+000	1.598225e+000	1.006882e+001	3.098209e+000	1.951872e+001	5.098189e+000	3.211859e+001
6.399999999999993e+000	1.598196e+000	1.022846e+001	3.098181e+000	1.982836e+001	5.098160e+000	3.262823e+001
6.499999999999993e+000	1.598168e+000	1.038809e+001	3.098152e+000	2.013799e+001	5.098132e+000	3.313786e+001
6.599999999999993e+000	1.598139e+000	1.054772e+001	3.098124e+000	2.044762e+001	5.098103e+000	3.364748e+001
6.699999999999992e+000	1.598110e+000	1.070734e+001	3.098095e+000	2.075724e+001	5.098074e+000	3.415710e+001
6.799999999999992e+000	1.598082e+000	1.086696e+001	3.098066e+000	2.106685e+001	5.098045e+000	3.466671e+001
6.899999999999992e+000	1.598053e+000	1.102656e+001	3.098037e+000	2.137646e+001	5.098017e+000	3.517632e+001
6.999999999999991e+000	1.598024e+000	1.118617e+001	3.098008e+000	2.168606e+001	5.097988e+000	3.568591e+001
7.099999999999991e+000	1.597995e+000	1.134576e+001	3.097979e+000	2.199565e+001	5.097959e+000	3.619551e+001
7.199999999999990e+000	1.597966e+000	1.150536e+001	3.097950e+000	2.230524e+001	5.097929e+000	3.670509e+001
7.299999999999990e+000	1.597937e+000	1.166494e+001	3.097921e+000	2.261482e+001	5.097900e+000	3.721467e+001
7.399999999999990e+000	1.597908e+000	1.182452e+001	3.097892e+000	2.292440e+001	5.097871e+000	3.772424e+001
7.499999999999989e+000	1.597878e+000	1.198409e+001	3.097862e+000	2.323397e+001	5.097841e+000	3.823381e+001
7.599999999999989e+000	1.597849e+000	1.214365e+001	3.097833e+000	2.354353e+001	5.097812e+000	3.874337e+001
7.699999999999989e+000	1.597819e+000	1.230321e+001	3.097803e+000	2.385309e+001	5.097782e+000	3.925292e+001
7.799999999999988e+000	1.597790e+000	1.246276e+001	3.097774e+000	2.416263e+001	5.097752e+000	3.976247e+001
7.899999999999988e+000	1.597760e+000	1.262230e+001	3.097744e+000	2.447218e+001	5.097722e+000	4.027200e+001
7.999999999999988e+000	1.597730e+000	1.278184e+001	3.097714e+000	2.478171e+001	5.097692e+000	4.078154e+001
8.099999999999987e+000	1.597700e+000	1.294137e+001	3.097683e+000	2.509124e+001	5.097661e+000	4.129106e+001
8.199999999999987e+000	1.597669e+000	1.310089e+001	3.097653e+000	2.540075e+001	5.097631e+000	4.180057e+001
8.299999999999987e+000	1.597639e+000	1.326040e+001	3.097622e+000	2.571027e+001	5.097600e+000	4.231008e+001
8.399999999999986e+000	1.597608e+000	1.341991e+001	3.097591e+000	2.601977e+001	5.097569e+000	4.281958e+001
8.499999999999986e+000	1.597577e+000	1.357941e+001	3.097560e+000	2.632926e+001	5.097538e+000	4.332907e+001
8.599999999999985e+000	1.597546e+000	1.373890e+001	3.097529e+000	2.663875e+001	5.097507e+000	4.383856e+001
8.699999999999985e+000	1.597515e+000	1.389838e+001	3.097497e+000	2.694823e+001	5.097475e+000	4.434803e+001
8.799999999999985e+000	1.597483e+000	1.405785e+001	3.097466e+000	2.725770e+001	5.097443e+000	4.485750e+001
8.899999999999984e+000	1.597451e+000	1.421731e+001	3.097434e+000	2.756716e+001	5.097410e+000	4.536695e+001
8.999999999999984e+000	1.597419e+000	1.437677e+001	3.097401e+000	2.787661e+001	5.097377e+000	4.587640e+001
9.099999999999984e+000	1.597386e+000	1.453621e+001	3.097368e+000	2.818605e+001	5.097344e+000	4.638583e+001
9.199999999999983e+000	1.597353e+000	1.469565e+001	3.097335e+000	2.849548e+001	5.097311e+000	4.689526e+001
9.299999999999983e+000	1.597320e+000	1.485507e+001	3.097301e+000	2.880490e+001	5.097277e+000	4.740467e+001
9.399999999999983e+000	1.597286e+000	1.501449e+001	3.097267e+000	2.911431e+001	5.097242e+000	4.791408e+001
9.499999999999982e+000	1.597252e+000	1.517389e+001	3.097233e+000	2.942371e+001	5.097208e+000	4.842347e+001
9.599999999999982e+000	1.597217e+000	1.533328e+001	3.097198e+000	2.973310e+001	5.097172e+000	4.893285e+001
9.699999999999982e+000	1.597182e+000	1.549266e+001	3.097162e+000	3.004247e+001	5.097136e+000	4.944222e+001
9.799999999999981e+000	1.597146e+000	1.565203e+001	3.097126e+000	3.035184e+001	5.097100e+000	4.995158e+001
9.899999999999981e+000	1.597109e+000	1.581138e+001	3.097090e+000	3.066119e+001	5.097063e+000	5.046092e+001
9.999999999999981e+000	1.597072e+000	1.597072e+001	3.097052e+000	3.097052e+001	5.097024e+000	5.097024e+001
1.009999999999998e+001	1.597035e+000	1.613005e+001	3.097014e+000	3.127984e+001	5.096986e+000	5.147956e+001
1.019999999999998e+001	1.596996e+000	1.628936e+001	3.096975e+000	3.158915e+001	5.096947e+000	5.198886e+001
1.029999999999998e+001	1.596957e+000	1.644866e+001	3.096935e+000	3.189843e+001	5.096906e+000	5.249813e+001
1.039999999999998e+001	1.596917e+000	1.660793e+001	3.096895e+000	3.220771e+001	5.096865e+000	5.300739e+001
1.049999999999998e+001	1.596876e+000	1.676719e+001	3.096853e+000	3.251696e+001	5.096823e+000	5.351664e+001
1.059999999999998e+001	1.596834e+000	1.692644e+001	3.096811e+000	3.282619e+001	5.096779e+000	5.402586e+001
1.069999999999998e+001	1.596791e+000	1.708566e+001	3.096767e+000	3.313541e+001	5.096735e+000	5.453506e+001
1.079999999999998e+001	1.596746e+000	1.724486e+001	3.096722e+000	3.344460e+001	5.096689e+000	5.504424e+001
1.089999999999998e+001	1.596701e+000	1.740404e+001	3.096676e+000	3.375377e+001	5.096642e+000	5.555340e+001
1.099999999999998e+001	1.596654e+000	1.756320e+001	3.096628e+000	3.406291e+001	5.096593e+000	5.606253e+001
1.109999999999998e+001	1.596606e+000	1.772233e+001	3.096580e+000	3.437203e+001	5.096543e+000	5.657163e+001
1.119999999999998e+001	1.596557e+000	1.788143e+001	3.096529e+000	3.468112e+001	5.096492e+000	5.708071e+001
1.129999999999998e+001	1.596505e+000	1.804051e+001	3.096477e+000	3.499019e+001	5.096438e+000	5.758975e+001
1.139999999999998e+001	1.596452e+000	1.819956e+001	3.096423e+000	3.529922e+001	5.096383e+000	5.809876e+001
1.149999999999998e+001	1.596397e+000	1.835857e+001	3.096367e+000	3.560822e+001	5.096325e+000	5.860774e+001
1.159999999999998e+001	1.596340e+000	1.851755e+001	3.096309e+000	3.591718e+001	5.096266e+000	5.911668e+001
1.169999999999997e+001	1.596281e+000	1.867649e+001	3.096249e+000	3.622611e+001	5.096204e+000	5.962558e+001
1.179999999999997e+001	1.596220e+000	1.883540e+001	3.096186e+000	3.653499e+001	5.096139e+000	6.013444e+001
1.189999999999997e+001	1.596156e+000	1.899426e+001	3.096121e+000	3.684384e+001	5.096072e+000	6.064325e+001
1.199999999999997e+001	1.596090e+000	1.915308e+001	3.096052e+000	3.715263e+001	5.096002e+000	6.115202e+001
1.209999999999997e+001	1.596020e+000	1.931184e+001	3.095981e+000	3.746137e+001	5.095928e+000	6.166073e+001
1.219999999999997e+001	1.595948e+000	1.947056e+001	3.095907e+000	3.777007e+001	5.095851e+000	6.216939e+001
1.229999999999997e+001	1.595872e+000	1.962922e+001	3.095829e+000	3.807870e+001	5.095771e+000	6.267798e+001
1.239999999999997e+001	1.595792e+000	1.978782e+001	3.095748e+000	3.838727e+001	5.095687e+000	6.318652e+001
1.249999999999997e+001	1.595709e+000	1.994636e+001	3.095662e+000	3.869578e+001	5.095598e+000	6.369498e+001
1.259999999999997e+001	1.595622e+000	2.010483e+001	3.095573e+000	3.900422e+001	5.095505e+000	6.420337e+001
1.269999999999997e+001	1.595530e+000	2.026323e+001	3.095478e+000	3.931257e+001	5.095407e+000	6.471168e+001
1.279999999999997e+001	1.595433e+000	2.042155e+001	3.095379e+000	3.962085e+001	5.095304e+000	6.521990e+001
1.289999999999997e+001	1.595332e+000	2.057978e+001	3.095275e+000	3.992904e+001	5.095196e+000	6.572803e+001
1.299999999999997e+001	1.595225e+000	2.073792e+001	3.095164e+000	4.023714e+001	5.095081e+000	6.623606e+001
1.309999999999997e+001	1.595112e+000	2.089596e+001	3.095048e+000	4.054513e+001	5.094960e+000	6.674398e+001
1.319999999999997e+001	1.594992e+000	2.105390e+001	3.094925e+000	4.085301e+001	5.094832e+000	6.725178e+001
1.329999999999997e+001	1.594866e+000	2.121172e+001	3.094795e+000	4.116077e+001	5.094697e+000	6.775946e+001
1.339999999999997e+001	1.594733e+000	2.136942e+001	3.094657e+000	4.146841e+001	5.094553e+000	6.826702e+001
1.349999999999997e+001	1.594591e+000	2.152699e+001	3.094512e+000	4.177591e+001	5.094401e+000	6.877442e+001
1.359999999999997e+001	1.594442e+000	2.168441e+001	3.094357e+000	4.208326e+001	5.094240e+000	6.928167e+001
1.369999999999997e+001	1.594283e+000	2.184168e+001	3.094193e+000	4.239045e+001	5.094069e+000	6.978875e+001
1.379999999999997e+001	1.594115e+000	2.199878e+001	3.094019e+000	4.269746e+001	5.093887e+000	7.029565e+001
1.389999999999997e+001	1.593936e+000	2.215570e+001	3.093834e+000	4.300430e+001	5.093694e+000	7.080235e+001
1.399999999999997e+001	1.593745e+000	2.231244e+001	3.093638e+000	4.331093e+001	5.093489e+000	7.130884e+001
1.409999999999997e+001	1.593543e+000	2.246896e+001	3.093429e+000	4.361735e+001	5.093270e+000	7.181511e+001
1.419999999999997e+001	1.593328e+000	2.262526e+001	3.093206e+000	4.392353e+001	5.093037e+000	7.232113e+001
1.429999999999997e+001	1.593099e+000	2.278132e+001	3.092969e+000	4.422946e+001	5.092789e+000	7.282689e+001
1.439999999999997e+001	1.592855e+000	2.293712e+001	3.092717e+000	4.453512e+001	5.092525e+000	7.333236e+001
1.449999999999996e+001	1.592595e+000	2.309263e+001	3.092448e+000	4.484049e+001	5.092243e+000	7.383753e+001
1.459999999999996e+001	1.592318e+000	2.324784e+001	3.092161e+000	4.514555e+001	5.091942e+000	7.434236e+001
1.469999999999996e+001	1.592022e+000	2.340273e+001	3.091855e+000	4.545026e+001	5.091621e+000	7.484683e+001
1.479999999999996e+001	1.591707e+000	2.355726e+001	3.091527e+000	4.575461e+001	5.091279e+000	7.535092e+001
1.489999999999996e+001	1.591370e+000	2.371141e+001	3.091178e+000	4.605856e+001	5.090912e+000	7.585459e+001
1.499999999999996e+001	1.591010e+000	2.386515e+001	3.090805e+000	4.636208e+001	5.090521e+000	7.635781e+001
1.509999999999996e+001	1.590625e+000	2.401844e+001	3.090407e+000	4.666514e+001	5.090103e+000	7.686055e+001
1.519999999999996e+001	1.590214e+000	2.417126e+001	3.089981e+000	4.696771e+001	5.089655e+000	7.736276e+001
1.529999999999996e+001	1.589775e+000	2.432356e+001	3.089525e+000	4.726973e+001	5.089177e+000	7.786441e+001
1.539999999999996e+001	1.589305e+000	2.447529e+001	3.089037e+000	4.757118e+001	5.088665e+000	7.836545e+001
1.549999999999996e+001	1.588802e+000	2.462643e+001	3.088516e+000	4.787200e+001	5.088118e+000	7.886583e+001
1.559999999999996e+001	1.588264e+000	2.477692e+001	3.087958e+000	4.817214e+001	5.087532e+000	7.936549e+001
1.569999999999996e+001	1.587688e+000	2.492670e+001	3.087360e+000	4.847155e+001	5.086904e+000	7.986439e+001
1.579999999999996e+001	1.587071e+000	2.507573e+001	3.086720e+000	4.877018e+001	5.086232e+000	8.036246e+001
1.589999999999996e+001	1.586411e+000	2.522394e+001	3.086035e+000	4.906796e+001	5.085512e+000	8.085964e+001
1.599999999999996e+001	1.585704e+000	2.537126e+001	3.085301e+000	4.936482e+001	5.084741e+000	8.135585e+001
1.609999999999996e+001	1.584946e+000	2.551764e+001	3.084515e+000	4.966069e+001	5.083914e+000	8.185102e+001
1.619999999999996e+001	1.584134e+000	2.566298e+001	3.083672e+000	4.995549e+001	5.083028e+000	8.234506e+001
1.629999999999996e+001	1.583265e+000	2.580721e+001	3.082769e+000	5.024914e+001	5.082079e+000	8.283789e+001
1.639999999999996e+001	1.582332e+000	2.595025e+001	3.081801e+000	5.054154e+001	5.081061e+000	8.332941e+001
1.649999999999996e+001	1.581333e+000	2.609199e+001	3.080763e+000	5.083260e+001	5.079970e+000	8.381951e+001
1.659999999999997e+001	1.580261e+000	2.623234e+001	3.079651e+000	5.112220e+001	5.078800e+000	8.430808e+001
1.669999999999997e+001	1.579112e+000	2.637118e+001	3.078458e+000	5.141024e+001	5.077546e+000	8.479501e+001
1.679999999999997e+001	1.577880e+000	2.650839e+001	3.077178e+000	5.169659e+001	5.076200e+000	8.528016e+001
1.689999999999997e+001	1.576559e+000	2.664384e+001	3.075806e+000	5.198112e+001	5.074757e+000	8.576339e+001
1.699999999999997e+001	1.575142e+000	2.677741e+001	3.074334e+000	5.226368e+001	5.073208e+000	8.624454e+001
1.709999999999997e+001	1.573621e+000	2.690892e+001	3.072755e+000	5.254411e+001	5.071547e+000	8.672345e+001
1.719999999999997e+001	1.571990e+000	2.703823e+001	3.071061e+000	5.282224e+001	5.069765e+000	8.719996e+001
1.729999999999998e+001	1.570240e+000	2.716516e+001	3.069243e+000	5.309791e+001	5.067853e+000	8.767386e+001
1.739999999999998e+001	1.568363e+000	2.728952e+001	3.067293e+000	5.337090e+001	5.065801e+000	8.814494e+001
1.749999999999998e+001	1.566349e+000	2.741110e+001	3.065200e+000	5.364100e+001	5.063599e+000	8.861298e+001
1.759999999999998e+001	1.564187e+000	2.752969e+001	3.062954e+000	5.390800e+001	5.061236e+000	8.907776e+001
1.769999999999998e+001	1.561867e+000	2.764504e+001	3.060544e+000	5.417163e+001	5.058701e+000	8.953900e+001
1.779999999999998e+001	1.559377e+000	2.775691e+001	3.057958e+000	5.443165e+001	5.055979e+000	8.999642e+001
1.789999999999998e+001	1.556705e+000	2.786502e+001	3.055182e+000	5.468775e+001	5.053058e+000	9.044973e+001
1.799999999999999e+001	1.553837e+000	2.796907e+001	3.052202e+000	5.493964e+001	5.049922e+000	9.089860e+001
1.809999999999999e+001	1.550759e+000	2.806873e+001	3.049004e+000	5.518697e+001	5.046556e+000	9.134267e+001
1.819999999999999e+001	1.547455e+000	2.816368e+001	3.045571e+000	5.542939e+001	5.042944e+000	9.178158e+001
1.829999999999999e+001	1.543908e+000	2.825351e+001	3.041886e+000	5.566651e+001	5.039066e+000	9.221490e+001
